<Qucs Dataset 0.0.19>
<indep V1 2>
  +0.00000000000000000000e+00
  +1.00000000000000000000e+00
</indep>
<indep V2 2>
  +0.00000000000000000000e+00
  +1.00000000000000000000e+00
</indep>
<indep V3 4>
  +0.00000000000000000000e+00
  +0.00000000000000000000e+00
  +1.00000000000000000000e+00
  +1.00000000000000000000e+00
</indep>
<indep V4 2>
  +0.00000000000000000000e+00
  +1.00000000000000000000e+00
</indep>
<dep V_out.V V1 V2 V3 V4>
  +0.00000000000000000000e+00
  +1.24999390592445150383e-01
  +2.49998780975992290765e-01
  +3.74998170941456876459e-01
  +0.00000000000000000000e+00
  +1.24999390592445150383e-01
  +2.49998780975992290765e-01
  +3.74998170941456876459e-01
  +4.99997560279080432988e-01
  +6.24996948778241634415e-01
  +7.49996336227164661636e-01
  +8.74995722412624132858e-01
  +4.99997560279080432988e-01
  +6.24996948778241634415e-01
  +7.49996336227164661636e-01
  +8.74995722412624132858e-01
  +9.99995107119646120530e-01
  +1.12499449013120367269e+00
  +1.24999387122790639459e+00
  +1.37499325018768292495e+00
  +9.99995107119646120530e-01
  +1.12499449013120367269e+00
  +1.24999387122790639459e+00
  +1.37499325018768292495e+00
  +1.49999262678545486338e+00
  +1.62499200079280337050e+00
  +1.74999137197762411056e+00
  +1.87499074010376953758e+00
  +1.49999262678545486338e+00
  +1.62499200079280337050e+00
  +1.74999137197762411056e+00
  +1.87499074010376953758e+00
</dep>
<dep V1.I V1 V2 V3 V4>
  +0.00000000000000000000e+00
  -1.24999984374152442554e-05
  +3.12570515030029689908e-12
  -1.24999953101024468324e-05
  +0.00000000000000000000e+00
  -1.24999984374152442554e-05
  +3.12570515030029689908e-12
  -1.24999953101024468324e-05
  +6.25569981248942111955e-12
  -1.24999921763480197496e-05
  +9.39429707728659458732e-12
  -1.24999890318181663664e-05
  +6.25569981248942111955e-12
  -1.24999921763480197496e-05
  +9.39429707728659458732e-12
  -1.24999890318181663664e-05
  +1.25458574693249644109e-11
  -1.24999858721195385435e-05
  +1.57148133579063260623e-11
  -1.24999826927744321306e-05
  +1.25458574693249644109e-11
  -1.24999858721195385435e-05
  +1.57148133579063260623e-11
  -1.24999826927744321306e-05
  +1.89056942225019347529e-11
  -1.24999794891949897306e-05
  +2.21231530726944978427e-11
  -1.24999762566560803989e-05
  +1.89056942225019347529e-11
  -1.24999794891949897306e-05
  +2.21231530726944978427e-11
  -1.24999762566560803989e-05
</dep>
<dep V2.I V1 V2 V3 V4>
  +0.00000000000000000000e+00
  +3.12516951260149302384e-12
  -2.49999937485897027621e-05
  -2.49999906202048936647e-05
  +0.00000000000000000000e+00
  +3.12516951260149302384e-12
  -2.49999937485897027621e-05
  -2.49999906202048936647e-05
  +1.25113996249788422391e-11
  +1.56473039623517630597e-11
  -2.49999812114058465819e-05
  -2.49999780636363327327e-05
  +1.25113996249788422391e-11
  +1.56473039623517630597e-11
  -2.49999812114058465819e-05
  -2.49999780636363327327e-05
  +2.50917149386499288219e-11
  +2.82557609261627244124e-11
  -2.49999685703732845083e-05
  -2.49999653855488642611e-05
  +2.50917149386499288219e-11
  +2.82557609261627244124e-11
  -2.49999685703732845083e-05
  -2.49999653855488642611e-05
  +3.78113884450038695059e-11
  +4.10216100200428606184e-11
  -2.49999557536938549142e-05
  -2.49999525133121607977e-05
  +3.78113884450038695059e-11
  +4.10216100200428606184e-11
  -2.49999557536938549142e-05
  -2.49999525133121607977e-05
</dep>
<dep V3.I V1 V2 V3 V4>
  +0.00000000000000000000e+00
  +6.25033902520298604767e-12
  +1.25028206012011875963e-11
  +1.87595902175604702182e-11
  +0.00000000000000000000e+00
  +6.25033902520298604767e-12
  +1.25028206012011875963e-11
  +1.87595902175604702182e-11
  -4.99999749772007536191e-05
  -4.99999687053920789984e-05
  -4.99999624228116931637e-05
  -4.99999561272726654655e-05
  -4.99999749772007536191e-05
  -4.99999687053920789984e-05
  -4.99999624228116931637e-05
  -4.99999561272726654655e-05
  +5.01834298772998576438e-11
  +5.65115218523254488248e-11
  +6.28592534316253042493e-11
  +6.92289022738738421547e-11
  +5.01834298772998576438e-11
  +5.65115218523254488248e-11
  +6.28592534316253042493e-11
  +6.92289022738738421547e-11
  -4.99999243772231155439e-05
  -4.99999179567799589222e-05
  -4.99999115073877098284e-05
  -4.99999050266243215954e-05
  -4.99999243772231155439e-05
  -4.99999179567799589222e-05
  -4.99999115073877098284e-05
  -4.99999050266243215954e-05
</dep>
<dep V4.I V1 V2 V3 V4>
  +0.00000000000000000000e+00
  +1.25006780504059720953e-11
  +2.50056412024023751926e-11
  +3.75191804351209404363e-11
  +0.00000000000000000000e+00
  +1.25006780504059720953e-11
  +2.50056412024023751926e-11
  +3.75191804351209404363e-11
  +5.00455984999153689564e-11
  +6.25892158494070522386e-11
  +7.51543766182927566985e-11
  +8.77454546735729597192e-11
  +5.00455984999153689564e-11
  +6.25892158494070522386e-11
  +7.51543766182927566985e-11
  +8.77454546735729597192e-11
  -9.99998996331402569687e-05
  -9.99998869769563083479e-05
  -9.99998742814931380332e-05
  -9.99998615421954570445e-05
  -9.99998996331402569687e-05
  -9.99998869769563083479e-05
  -9.99998742814931380332e-05
  -9.99998615421954570445e-05
  -9.99998487544462310878e-05
  -9.99998359135599178445e-05
  -9.99998230147754196568e-05
  -9.99998100532486431909e-05
  -9.99998487544462310878e-05
  -9.99998359135599178445e-05
  -9.99998230147754196568e-05
  -9.99998100532486431909e-05
</dep>
<dep _net6.V V1 V2 V3 V4>
  +0.00000000000000000000e+00
  +1.24999390592445150383e-01
  +2.49998780975992290765e-01
  +3.74998170941456876459e-01
  +0.00000000000000000000e+00
  +1.24999390592445150383e-01
  +2.49998780975992290765e-01
  +3.74998170941456876459e-01
  +4.99997560279080432988e-01
  +6.24996948778241634415e-01
  +7.49996336227164661636e-01
  +8.74995722412624132858e-01
  +4.99997560279080432988e-01
  +6.24996948778241634415e-01
  +7.49996336227164661636e-01
  +8.74995722412624132858e-01
  +9.99995107119646120530e-01
  +1.12499449013120367269e+00
  +1.24999387122790639459e+00
  +1.37499325018768292495e+00
  +9.99995107119646120530e-01
  +1.12499449013120367269e+00
  +1.24999387122790639459e+00
  +1.37499325018768292495e+00
  +1.49999262678545486338e+00
  +1.62499200079280337050e+00
  +1.74999137197762411056e+00
  +1.87499074010376953758e+00
  +1.49999262678545486338e+00
  +1.62499200079280337050e+00
  +1.74999137197762411056e+00
  +1.87499074010376953758e+00
</dep>
<dep _net7.V V1 V2 V3 V4>
  +0.00000000000000000000e+00
  -1.25006530448155197650e-07
  -2.50055911569275379536e-07
  -3.75191052810738503099e-07
  +0.00000000000000000000e+00
  -1.25006530448155197650e-07
  -2.50055911569275379536e-07
  -3.75191052810738503099e-07
  -5.00454981340138018709e-07
  -6.25890901334723320899e-07
  -7.51542253788449275230e-07
  -8.77452777013206700171e-07
  -5.00454981340138018709e-07
  -6.25890901334723320899e-07
  -7.51542253788449275230e-07
  -8.77452777013206700171e-07
  -1.00366656801430625879e-06
  -1.13022814492471075933e-06
  -1.25718251068789820511e-06
  -1.38457521818561640987e-06
  -1.00366656801430625879e-06
  -1.13022814492471075933e-06
  -1.25718251068789820511e-06
  -1.38457521818561640987e-06
  -1.51245243701423636718e-06
  -1.64086102212194806650e-06
  -1.76984858452877962162e-06
  -1.89946356436238838328e-06
  -1.51245243701423636718e-06
  -1.64086102212194806650e-06
  -1.76984858452877962162e-06
  -1.89946356436238838328e-06
</dep>
<dep _net1.V V1 V2 V3 V4>
  +0.00000000000000000000e+00
  -1.24999640605506043278e-01
  -2.49999281087815439228e-01
  -3.74998921323562495189e-01
  +0.00000000000000000000e+00
  -1.24999640605506043278e-01
  -2.49999281087815439228e-01
  -3.74998921323562495189e-01
  -4.99998561189043122521e-01
  -6.24998200560044292473e-01
  -7.49997839311672187534e-01
  -8.74997477318178118466e-01
  -4.99998561189043122521e-01
  -6.24998200560044292473e-01
  -7.49997839311672187534e-01
  -8.74997477318178118466e-01
  -9.99997114452782165372e-01
  -1.12499675058749359913e+00
  -1.24999638559292769457e+00
  -1.37499601933811921306e+00
  -9.99997114452782165372e-01
  -1.12499675058749359913e+00
  -1.24999638559292769457e+00
  -1.37499601933811921306e+00
  -1.49999565169032900158e+00
  -1.62499528251484770536e+00
  -1.74999491167479326315e+00
  -1.87499453903089818851e+00
  -1.49999565169032900158e+00
  -1.62499528251484770536e+00
  -1.74999491167479326315e+00
  -1.87499453903089818851e+00
</dep>
<dep _net5.V V1 V2 V3 V4>
  +0.00000000000000000000e+00
  +0.00000000000000000000e+00
  +0.00000000000000000000e+00
  +0.00000000000000000000e+00
  +0.00000000000000000000e+00
  +0.00000000000000000000e+00
  +0.00000000000000000000e+00
  +0.00000000000000000000e+00
  +0.00000000000000000000e+00
  +0.00000000000000000000e+00
  +0.00000000000000000000e+00
  +0.00000000000000000000e+00
  +0.00000000000000000000e+00
  +0.00000000000000000000e+00
  +0.00000000000000000000e+00
  +0.00000000000000000000e+00
  +1.00000000000000000000e+00
  +1.00000000000000000000e+00
  +1.00000000000000000000e+00
  +1.00000000000000000000e+00
  +1.00000000000000000000e+00
  +1.00000000000000000000e+00
  +1.00000000000000000000e+00
  +1.00000000000000000000e+00
  +1.00000000000000000000e+00
  +1.00000000000000000000e+00
  +1.00000000000000000000e+00
  +1.00000000000000000000e+00
  +1.00000000000000000000e+00
  +1.00000000000000000000e+00
  +1.00000000000000000000e+00
  +1.00000000000000000000e+00
</dep>
<dep _net4.V V1 V2 V3 V4>
  +0.00000000000000000000e+00
  +0.00000000000000000000e+00
  +0.00000000000000000000e+00
  +0.00000000000000000000e+00
  +0.00000000000000000000e+00
  +0.00000000000000000000e+00
  +0.00000000000000000000e+00
  +0.00000000000000000000e+00
  +1.00000000000000000000e+00
  +1.00000000000000000000e+00
  +1.00000000000000000000e+00
  +1.00000000000000000000e+00
  +1.00000000000000000000e+00
  +1.00000000000000000000e+00
  +1.00000000000000000000e+00
  +1.00000000000000000000e+00
  +0.00000000000000000000e+00
  +0.00000000000000000000e+00
  +0.00000000000000000000e+00
  +0.00000000000000000000e+00
  +0.00000000000000000000e+00
  +0.00000000000000000000e+00
  +0.00000000000000000000e+00
  +0.00000000000000000000e+00
  +1.00000000000000000000e+00
  +1.00000000000000000000e+00
  +1.00000000000000000000e+00
  +1.00000000000000000000e+00
  +1.00000000000000000000e+00
  +1.00000000000000000000e+00
  +1.00000000000000000000e+00
  +1.00000000000000000000e+00
</dep>
<dep _net3.V V1 V2 V3 V4>
  +0.00000000000000000000e+00
  +0.00000000000000000000e+00
  +1.00000000000000000000e+00
  +1.00000000000000000000e+00
  +0.00000000000000000000e+00
  +0.00000000000000000000e+00
  +1.00000000000000000000e+00
  +1.00000000000000000000e+00
  +0.00000000000000000000e+00
  +0.00000000000000000000e+00
  +1.00000000000000000000e+00
  +1.00000000000000000000e+00
  +0.00000000000000000000e+00
  +0.00000000000000000000e+00
  +1.00000000000000000000e+00
  +1.00000000000000000000e+00
  +0.00000000000000000000e+00
  +0.00000000000000000000e+00
  +1.00000000000000000000e+00
  +1.00000000000000000000e+00
  +0.00000000000000000000e+00
  +0.00000000000000000000e+00
  +1.00000000000000000000e+00
  +1.00000000000000000000e+00
  +0.00000000000000000000e+00
  +0.00000000000000000000e+00
  +1.00000000000000000000e+00
  +1.00000000000000000000e+00
  +0.00000000000000000000e+00
  +0.00000000000000000000e+00
  +1.00000000000000000000e+00
  +1.00000000000000000000e+00
</dep>
<dep _net2.V V1 V2 V3 V4>
  +0.00000000000000000000e+00
  +1.00000000000000000000e+00
  +0.00000000000000000000e+00
  +1.00000000000000000000e+00
  +0.00000000000000000000e+00
  +1.00000000000000000000e+00
  +0.00000000000000000000e+00
  +1.00000000000000000000e+00
  +0.00000000000000000000e+00
  +1.00000000000000000000e+00
  +0.00000000000000000000e+00
  +1.00000000000000000000e+00
  +0.00000000000000000000e+00
  +1.00000000000000000000e+00
  +0.00000000000000000000e+00
  +1.00000000000000000000e+00
  +0.00000000000000000000e+00
  +1.00000000000000000000e+00
  +0.00000000000000000000e+00
  +1.00000000000000000000e+00
  +0.00000000000000000000e+00
  +1.00000000000000000000e+00
  +0.00000000000000000000e+00
  +1.00000000000000000000e+00
  +0.00000000000000000000e+00
  +1.00000000000000000000e+00
  +0.00000000000000000000e+00
  +1.00000000000000000000e+00
  +0.00000000000000000000e+00
  +1.00000000000000000000e+00
  +0.00000000000000000000e+00
  +1.00000000000000000000e+00
</dep>
<dep _net0.V V1 V2 V3 V4>
  +0.00000000000000000000e+00
  +1.25006780504059723177e-07
  +2.50056412024023771675e-07
  +3.75191804351209339946e-07
  +0.00000000000000000000e+00
  +1.25006780504059723177e-07
  +2.50056412024023771675e-07
  +3.75191804351209339946e-07
  +5.00455984999153618840e-07
  +6.25892158494070554026e-07
  +7.51543766182927532657e-07
  +8.77454546735729256600e-07
  +5.00455984999153618840e-07
  +6.25892158494070554026e-07
  +7.51543766182927532657e-07
  +8.77454546735729256600e-07
  +1.00366859751011006097e-06
  +1.13023043704650907059e-06
  +1.25718506863250602377e-06
  +1.38457804549352303525e-06
  +1.00366859751011006097e-06
  +1.13023043704650907059e-06
  +1.25718506863250602377e-06
  +1.38457804549352303525e-06
  +1.51245553780015485055e-06
  +1.64086440079813655757e-06
  +1.76985224581556003545e-06
  +1.89946751359714994865e-06
  +1.51245553780015485055e-06
  +1.64086440079813655757e-06
  +1.76985224581556003545e-06
  +1.89946751359714994865e-06
</dep>
